
T1E10 000:339 SEGGER J-Link V4.96d Log File (0001ms, 0275ms total)
T1E10 000:339 DLL Compiled: Jan 29 2015 11:45:37 (0001ms, 0275ms total)
T1E10 000:339 Logging started @ 2017-04-13 22:17 (0001ms, 0275ms total)
T1E10 000:340 JLINK_SetWarnOutHandler(...) (0000ms, 0275ms total)
T1E10 000:340 JLINK_OpenEx(...)
Firmware: J-Link ARM V8 compiled Nov 28 2014 13:44:46
Hardware: V8.00
S/N: 1631096674
Feature(s): RDI,FlashDL,FlashBP,JFlash,GDBFULL  returns O.K. (0271ms, 0546ms total)
T1E10 000:611 JLINK_SetErrorOutHandler(...) (0000ms, 0546ms total)
T1E10 000:611 JLINK_ExecCommand("ProjectFile = "C:\Users\Shengjie Zhu\Desktop\ALIENTEK MINISTM32 实验0-1 Template工程模板-新建工程章节使用\USER\JLinkSettings.ini"", ...)  returns 0x00 (0001ms, 0547ms total)
T1E10 000:612 JLINK_ExecCommand("Device = STM32F103ZE", ...)Device "STM32F103ZE" selected.  returns 0x00 (0003ms, 0550ms total)
T1E10 000:615 JLINK_ExecCommand("DisableConnectionTimeout", ...)  returns 0x01 (0000ms, 0550ms total)
T1E10 000:615 JLINK_GetHardwareVersion()  returns 0x13880 (0000ms, 0550ms total)
T1E10 000:615 JLINK_GetDLLVersion()  returns 49604 (0000ms, 0550ms total)
T1E10 000:615 JLINK_GetFirmwareString(...) (0000ms, 0550ms total)
T1E10 000:616 JLINK_GetDLLVersion()  returns 49604 (0000ms, 0550ms total)
T1E10 000:616 JLINK_GetCompileDateTime() (0000ms, 0550ms total)
T1E10 000:617 JLINK_GetFirmwareString(...) (0000ms, 0550ms total)
T1E10 000:617 JLINK_GetHardwareVersion()  returns 0x13880 (0000ms, 0550ms total)
T1E10 000:619 JLINK_TIF_Select(JLINKARM_TIF_JTAG)  returns 0x00 (0004ms, 0554ms total)
T1E10 000:623 JLINK_SetSpeed(500) (0001ms, 0555ms total)
T1E10 000:624 JLINK_GetIdData(...) >0x2F8 JTAG>TotalIRLen = 9, IRPrint = 0x0011 >0x30 JTAG> >0x210 JTAG> >0x40 JTAG> >0x40 JTAG> >0x40 JTAG> >0x30 JTAG> >0x40 JTAG> >0x40 JTAG> >0x40 JTAG> >0x40 JTAG> >0x40 JTAG> >0x40 JTAG> >0x40 JTAG> >0x40 JTAG> >0x2F8 JTAG>TotalIRLen = 9, IRPrint = 0x0011 >0x30 JTAG> >0x210 JTAG> >0x70 JTAG> >0x40 JTAG> >0x40 JTAG> >0x40 JTAG> >0x50 JTAG> >0x80 JTAG> >0x40 JTAG> >0x30 JTAG> >0x40 JTAG> >0x40 JTAG> >0x30 JTAG> >0x40 JTAG> >0x50 JTAG>
Found Cortex-M3 r1p1, Little endian. -- CPU_WriteMem(4 bytes @ 0xE0002000) -- CPU_ReadMem(4 bytes @ 0xE000EDF0) -- CPU_ReadMem(4 bytes @ 0xE0002000)FPUnit: 6 code (BP) slots and 2 literal slots -- CPU_ReadMem(4 bytes @ 0xE000EDFC) -- CPU_ReadMem(4 bytes @ 0xE0001000) -- CPU_WriteMem(4 bytes @ 0xE0001000) -- CPU_ReadMem(4 bytes @ 0xE000ED88) -- CPU_WriteMem(4 bytes @ 0xE000ED88) -- CPU_ReadMem(4 bytes @ 0xE000ED88) -- CPU_WriteMem(4 bytes @ 0xE000ED88) -- CPU_ReadMem(4 bytes @ 0xE00FF010)TPIU fitted.
 -- CPU_ReadMem(4 bytes @ 0xE00FF014)ETM fitted. -- CPU_ReadMem(4 bytes @ 0xE00FF018) ScanLen=9 NumDevices=2 aId[0]=0x3BA00477 aIrRead[0]=0 aScanLen[0]=0 aScanRead[0]=0 (0072ms, 0627ms total)
T1E10 000:696 JLINK_JTAG_GetDeviceID(DeviceIndex = 0)  returns 0x3BA00477 (0000ms, 0627ms total)
T1E10 000:697 JLINK_JTAG_GetDeviceInfo(DeviceIndex = 0)  returns 0x00 (0000ms, 0628ms total)
T1E10 000:697 JLINK_JTAG_GetDeviceID(DeviceIndex = 1)  returns 0x6414041 (0000ms, 0628ms total)
T1E10 000:697 JLINK_JTAG_GetDeviceInfo(DeviceIndex = 1)  returns 0x00 (0000ms, 0628ms total)
T1E10 000:697 JLINK_GetDLLVersion()  returns 49604 (0000ms, 0628ms total)
T1E10 000:697 JLINK_CORE_GetFound()  returns 0x30000FF (0000ms, 0628ms total)
T1E10 000:697 JLINK_GetDebugInfo(0x100) -- Value=0xE00FF003  returns 0x00 (0000ms, 0628ms total)
T1E10 000:697 JLINK_ReadMem (0xE00FF000, 0x0020 Bytes, ...) -- CPU is running -- CPU_ReadMem(32 bytes @ 0xE00FF000) - Data: 03 F0 F0 FF 03 20 F0 FF 03 30 F0 FF 03 10 F0 FF ...  returns 0x00 (0004ms, 0632ms total)
T1E10 000:701 JLINK_ReadMem (0xE000EFF0, 0x0010 Bytes, ...) -- CPU is running -- CPU_ReadMem(16 bytes @ 0xE000EFF0) - Data: 0D 00 00 00 E0 00 00 00 05 00 00 00 B1 00 00 00  returns 0x00 (0003ms, 0635ms total)
T1E10 000:704 JLINK_ReadMem (0xE000EFD0, 0x0020 Bytes, ...) -- CPU is running -- CPU_ReadMem(32 bytes @ 0xE000EFD0) - Data: 04 00 00 00 00 00 00 00 00 00 00 00 00 00 00 00 ...  returns 0x00 (0003ms, 0638ms total)
T1E10 000:707 JLINK_ReadMem (0xE0001FF0, 0x0010 Bytes, ...) -- CPU is running -- CPU_ReadMem(16 bytes @ 0xE0001FF0) - Data: 0D 00 00 00 E0 00 00 00 05 00 00 00 B1 00 00 00  returns 0x00 (0003ms, 0641ms total)
T1E10 000:710 JLINK_ReadMem (0xE0001FD0, 0x0020 Bytes, ...) -- CPU is running -- CPU_ReadMem(32 bytes @ 0xE0001FD0) - Data: 04 00 00 00 00 00 00 00 00 00 00 00 00 00 00 00 ...  returns 0x00 (0003ms, 0644ms total)
T1E10 000:713 JLINK_ReadMem (0xE0002FF0, 0x0010 Bytes, ...) -- CPU is running -- CPU_ReadMem(16 bytes @ 0xE0002FF0) - Data: 0D 00 00 00 E0 00 00 00 05 00 00 00 B1 00 00 00  returns 0x00 (0002ms, 0646ms total)
T1E10 000:715 JLINK_ReadMem (0xE0002FD0, 0x0020 Bytes, ...) -- CPU is running -- CPU_ReadMem(32 bytes @ 0xE0002FD0) - Data: 04 00 00 00 00 00 00 00 00 00 00 00 00 00 00 00 ...  returns 0x00 (0003ms, 0649ms total)
T1E10 000:718 JLINK_ReadMem (0xE0000FF0, 0x0010 Bytes, ...) -- CPU is running -- CPU_ReadMem(16 bytes @ 0xE0000FF0) - Data: 0D 00 00 00 E0 00 00 00 05 00 00 00 B1 00 00 00  returns 0x00 (0003ms, 0652ms total)
T1E10 000:721 JLINK_ReadMem (0xE0000FD0, 0x0020 Bytes, ...) -- CPU is running -- CPU_ReadMem(32 bytes @ 0xE0000FD0) - Data: 04 00 00 00 00 00 00 00 00 00 00 00 00 00 00 00 ...  returns 0x00 (0003ms, 0655ms total)
T1E10 000:724 JLINK_ReadMem (0xE0040FF0, 0x0010 Bytes, ...) -- CPU is running -- CPU_ReadMem(16 bytes @ 0xE0040FF0) - Data: 0D 00 00 00 90 00 00 00 05 00 00 00 B1 00 00 00  returns 0x00 (0002ms, 0657ms total)
T1E10 000:726 JLINK_ReadMem (0xE0040FD0, 0x0020 Bytes, ...) -- CPU is running -- CPU_ReadMem(32 bytes @ 0xE0040FD0) - Data: 04 00 00 00 00 00 00 00 00 00 00 00 00 00 00 00 ...  returns 0x00 (0003ms, 0660ms total)
T1E10 000:729 JLINK_ReadMem (0xE0041FF0, 0x0010 Bytes, ...) -- CPU is running -- CPU_ReadMem(16 bytes @ 0xE0041FF0) - Data: 0D 00 00 00 90 00 00 00 05 00 00 00 B1 00 00 00  returns 0x00 (0002ms, 0662ms total)
T1E10 000:731 JLINK_ReadMem (0xE0041FD0, 0x0020 Bytes, ...) -- CPU is running -- CPU_ReadMem(32 bytes @ 0xE0041FD0) - Data: 04 00 00 00 00 00 00 00 00 00 00 00 00 00 00 00 ...  returns 0x00 (0003ms, 0665ms total)
T1E10 000:734 JLINK_ReadMemU32(0xE000ED00, 0x0001 Items, ...) -- CPU is running -- CPU_ReadMem(4 bytes @ 0xE000ED00) - Data: 31 C2 1F 41  returns 0x01 (0002ms, 0667ms total)
T1E10 000:736 JLINK_SetResetType(JLINKARM_RESET_TYPE_NORMAL)  returns JLINKARM_RESET_TYPE_NORMAL (0000ms, 0667ms total)
T1E10 000:736 JLINK_Reset() -- CPU is running -- CPU_WriteMem(4 bytes @ 0xE000EDF0) -- CPU is running -- CPU_WriteMem(4 bytes @ 0xE000EDFC) -- CPU is running -- CPU_WriteMem(4 bytes @ 0xE000ED0C) -- CPU is running -- CPU_ReadMem(4 bytes @ 0xE000EDF0) -- CPU is running -- CPU_ReadMem(4 bytes @ 0xE000EDF0) -- CPU is running -- CPU_WriteMem(4 bytes @ 0xE000EDF0) -- CPU is running -- CPU_WriteMem(4 bytes @ 0xE000EDFC) -- CPU is running -- CPU_ReadMem(4 bytes @ 0xE000EDF0) >0x80 JTAG> >0x40 JTAG> >0x30 JTAG>
 >0x40 JTAG> >0x50 JTAG> >0x40 JTAG> -- CPU_WriteMem(4 bytes @ 0xE000EDFC) -- CPU_WriteMem(4 bytes @ 0xE0001028) -- CPU_WriteMem(4 bytes @ 0xE0001038) -- CPU_WriteMem(4 bytes @ 0xE0001048) -- CPU_WriteMem(4 bytes @ 0xE0001058) -- CPU_WriteMem(4 bytes @ 0xE0002000) -- CPU_ReadMem(4 bytes @ 0xE000EDFC) -- CPU_ReadMem(4 bytes @ 0xE0001000) (0068ms, 0735ms total)
T1E10 000:804 JLINK_ReadReg(R15 (PC))  returns 0x080004E8 (0000ms, 0735ms total)
T1E10 000:804 JLINK_ReadReg(XPSR)  returns 0x01000000 (0000ms, 0735ms total)
T1E10 000:804 JLINK_Halt()  returns 0x00 (0000ms, 0735ms total)
T1E10 000:804 JLINK_IsHalted()  returns TRUE (0000ms, 0735ms total)
T1E10 000:804 JLINK_ReadMemU32(0xE000EDF0, 0x0001 Items, ...) -- CPU_ReadMem(4 bytes @ 0xE000EDF0) - Data: 03 00 03 00  returns 0x01 (0003ms, 0738ms total)
T1E10 000:807 JLINK_WriteU32(0xE000EDF0, 0xA05F0003) -- CPU_WriteMem(4 bytes @ 0xE000EDF0)  returns 0x00 (0002ms, 0740ms total)
T1E10 000:809 JLINK_WriteU32(0xE000EDFC, 0x01000000) -- CPU_WriteMem(4 bytes @ 0xE000EDFC)  returns 0x00 (0002ms, 0742ms total)
T1E10 000:813 JLINK_GetHWStatus(...)  returns 0x00 (0001ms, 0743ms total)
T1E10 000:815 JLINK_GetNumBPUnits(Type = 0xFFFFFF00)  returns 0x06 (0000ms, 0743ms total)
T1E10 000:815 JLINK_GetNumBPUnits(Type = 0xF0)  returns 0x2000 (0000ms, 0743ms total)
T1E10 000:815 JLINK_GetNumWPUnits()  returns 0x04 (0000ms, 0743ms total)
T1E10 000:817 JLINK_GetSpeed()  returns 0x1F4 (0000ms, 0743ms total)
T1E10 000:818 JLINK_ReadMemU32(0xE000E004, 0x0001 Items, ...) -- CPU_ReadMem(4 bytes @ 0xE000E004) - Data: 01 00 00 00  returns 0x01 (0002ms, 0745ms total)
T1E10 000:820 JLINK_ReadMemU32(0xE000E004, 0x0001 Items, ...) -- CPU_ReadMem(4 bytes @ 0xE000E004) - Data: 01 00 00 00  returns 0x01 (0002ms, 0747ms total)
T1E10 000:822 JLINK_WriteMem(0xE0001000, 0x001C Bytes, ...) - Data: 01 00 00 00 00 00 00 00 00 00 00 00 00 00 00 00 ... -- CPU_WriteMem(28 bytes @ 0xE0001000)  returns 0x1C (0004ms, 0751ms total)
T1E10 000:826 JLINK_ReadMem (0xE0001000, 0x001C Bytes, ...) -- CPU_ReadMem(28 bytes @ 0xE0001000) - Data: 01 00 00 40 00 00 00 00 00 00 00 00 00 00 00 00 ...  returns 0x00 (0003ms, 0754ms total)
T1E10 000:829 JLINK_ReadReg(R15 (PC))  returns 0x080004E8 (0000ms, 0754ms total)
T1E10 000:829 JLINK_ReadReg(XPSR)  returns 0x01000000 (0000ms, 0754ms total)
T1E10 000:983 JLINK_SetResetType(JLINKARM_RESET_TYPE_NORMAL)  returns JLINKARM_RESET_TYPE_NORMAL (0000ms, 0754ms total)
T1E10 000:983 JLINK_Reset() -- CPU_WriteMem(4 bytes @ 0xE000EDF0) -- CPU_WriteMem(4 bytes @ 0xE000EDFC) -- CPU_WriteMem(4 bytes @ 0xE000ED0C) -- CPU_ReadMem(4 bytes @ 0xE000EDF0) -- CPU_ReadMem(4 bytes @ 0xE000EDF0) -- CPU_WriteMem(4 bytes @ 0xE000EDF0) -- CPU_WriteMem(4 bytes @ 0xE000EDFC) -- CPU is running -- CPU_ReadMem(4 bytes @ 0xE000EDF0) >0x80 JTAG> >0x40 JTAG> >0x30 JTAG> >0x40 JTAG> >0x50 JTAG> >0x40 JTAG> -- CPU_WriteMem(4 bytes @ 0xE000EDFC) -- CPU_WriteMem(4 bytes @ 0xE0001028)
 -- CPU_WriteMem(4 bytes @ 0xE0001038) -- CPU_WriteMem(4 bytes @ 0xE0001048) -- CPU_WriteMem(4 bytes @ 0xE0001058) -- CPU_WriteMem(4 bytes @ 0xE0002000) -- CPU_ReadMem(4 bytes @ 0xE000EDFC) -- CPU_ReadMem(4 bytes @ 0xE0001000) (0062ms, 0816ms total)
T1E10 001:046 JLINK_ReadReg(R15 (PC))  returns 0x080004E8 (0000ms, 0816ms total)
T1E10 001:046 JLINK_ReadReg(XPSR)  returns 0x01000000 (0000ms, 0816ms total)
T1E10 001:047 JLINK_ReadMemU32(0xE0001004, 0x0001 Items, ...) -- CPU_ReadMem(4 bytes @ 0xE0001004) - Data: DC 09 00 00  returns 0x01 (0002ms, 0818ms total)
T1E10 001:254 JLINK_ReadMem (0x080004E8, 0x003C Bytes, ...) -- CPU_ReadMem(128 bytes @ 0x080004C0) -- Updating C cache (128 bytes @ 0x080004C0) -- Read from C cache (60 bytes @ 0x080004E8) - Data: 09 48 80 47 09 48 00 47 FE E7 FE E7 FE E7 FE E7 ...  returns 0x00 (0006ms, 0824ms total)
T1E10 001:874 JLINK_ReadMem (0x00000000, 0x0078 Bytes, ...) -- CPU_ReadMem(4 bytes @ 0x00000004) -- CPU_ReadMem(128 bytes @ 0x08000000) -- Updating C cache (128 bytes @ 0x08000000) -- Read from C cache (120 bytes @ 0x08000000) - Data: 60 07 00 20 E9 04 00 08 ED 02 00 08 EF 02 00 08 ...  returns 0x00 (0008ms, 0832ms total)
T1E10 002:157 JLINK_ReadMem (0x00000000, 0x00AA Bytes, ...) -- CPU_ReadMem(64 bytes @ 0x08000080) -- Updating C cache (64 bytes @ 0x08000080) -- Read from C cache (170 bytes @ 0x08000000) - Data: 60 07 00 20 E9 04 00 08 ED 02 00 08 EF 02 00 08 ...  returns 0x00 (0004ms, 0836ms total)
T2644 002:424 JLINK_SetBPEx(Addr = 0x080001FE, Type = 0xFFFFFFF2)  returns 0x00000001 (0000ms, 0836ms total)
T2644 002:424 JLINK_Go() -- CPU_WriteMem(4 bytes @ 0xE0002008) -- CPU_WriteMem(4 bytes @ 0xE000200C) -- CPU_WriteMem(4 bytes @ 0xE0002010) -- CPU_WriteMem(4 bytes @ 0xE0002014) -- CPU_WriteMem(4 bytes @ 0xE0002018) -- CPU_WriteMem(4 bytes @ 0xE000201C) -- CPU_WriteMem(4 bytes @ 0xE0001004) (0009ms, 0845ms total)
T2644 002:534 JLINK_IsHalted()  returns TRUE (0014ms, 0859ms total)
T2644 002:548 JLINK_Halt()  returns 0x00 (0000ms, 0845ms total)
T2644 002:548 JLINK_IsHalted()  returns TRUE (0000ms, 0845ms total)
T2644 002:548 JLINK_IsHalted()  returns TRUE (0000ms, 0845ms total)
T2644 002:548 JLINK_IsHalted()  returns TRUE (0000ms, 0845ms total)
T2644 002:548 JLINK_ReadReg(R15 (PC))  returns 0x080001FE (0000ms, 0845ms total)
T2644 002:548 JLINK_ReadReg(XPSR)  returns 0x21000000 (0000ms, 0845ms total)
T2644 002:548 JLINK_ClrBPEx(BPHandle = 0x00000001)  returns 0x00 (0000ms, 0845ms total)
T2644 002:548 JLINK_ReadMemU32(0xE000ED30, 0x0001 Items, ...) -- CPU_ReadMem(4 bytes @ 0xE000ED30) - Data: 03 00 00 00  returns 0x01 (0002ms, 0847ms total)
T2644 002:550 JLINK_ReadMemU32(0xE0001028, 0x0001 Items, ...) -- CPU_ReadMem(4 bytes @ 0xE0001028) - Data: 00 00 00 00  returns 0x01 (0002ms, 0849ms total)
T2644 002:552 JLINK_ReadMemU32(0xE0001038, 0x0001 Items, ...) -- CPU_ReadMem(4 bytes @ 0xE0001038) - Data: 00 02 00 00  returns 0x01 (0002ms, 0851ms total)
T2644 002:554 JLINK_ReadMemU32(0xE0001048, 0x0001 Items, ...) -- CPU_ReadMem(4 bytes @ 0xE0001048) - Data: 00 00 00 00  returns 0x01 (0002ms, 0853ms total)
T2644 002:556 JLINK_ReadMemU32(0xE0001058, 0x0001 Items, ...) -- CPU_ReadMem(4 bytes @ 0xE0001058) - Data: 00 00 00 00  returns 0x01 (0002ms, 0855ms total)
T2644 002:558 JLINK_ReadReg(R0)  returns 0x20000160 (0000ms, 0855ms total)
T2644 002:558 JLINK_ReadReg(R1)  returns 0x20000360 (0000ms, 0855ms total)
T2644 002:558 JLINK_ReadReg(R2)  returns 0x20000360 (0000ms, 0855ms total)
T2644 002:558 JLINK_ReadReg(R3)  returns 0x20000360 (0000ms, 0855ms total)
T2644 002:558 JLINK_ReadReg(R4)  returns 0x00000000 (0000ms, 0855ms total)
T2644 002:558 JLINK_ReadReg(R5)  returns 0x200000FC (0000ms, 0855ms total)
T2644 002:558 JLINK_ReadReg(R6)  returns 0x00000000 (0000ms, 0855ms total)
T2644 002:558 JLINK_ReadReg(R7)  returns 0x00000000 (0000ms, 0855ms total)
T2644 002:558 JLINK_ReadReg(R8)  returns 0x00000000 (0000ms, 0855ms total)
T2644 002:558 JLINK_ReadReg(R9)  returns 0x20000160 (0000ms, 0855ms total)
T2644 002:558 JLINK_ReadReg(R10)  returns 0x08001AC8 (0000ms, 0855ms total)
T2644 002:558 JLINK_ReadReg(R11)  returns 0x00000000 (0000ms, 0855ms total)
T2644 002:558 JLINK_ReadReg(R12)  returns 0x2000013C (0000ms, 0855ms total)
T2644 002:558 JLINK_ReadReg(R13 (SP))  returns 0x20000760 (0000ms, 0855ms total)
T2644 002:558 JLINK_ReadReg(R14)  returns 0x080001C5 (0000ms, 0855ms total)
T2644 002:558 JLINK_ReadReg(R15 (PC))  returns 0x080001FE (0000ms, 0855ms total)
T2644 002:558 JLINK_ReadReg(XPSR)  returns 0x21000000 (0000ms, 0855ms total)
T2644 002:558 JLINK_ReadReg(MSP)  returns 0x20000760 (0000ms, 0855ms total)
T2644 002:558 JLINK_ReadReg(PSP)  returns 0x20000800 (0000ms, 0855ms total)
T2644 002:558 JLINK_ReadReg(CFBP)  returns 0x00000000 (0000ms, 0855ms total)
T1E10 002:611 JLINK_ReadMemU32(0xE0001004, 0x0001 Items, ...) -- CPU_ReadMem(4 bytes @ 0xE0001004) - Data: BC 1D 00 00  returns 0x01 (0002ms, 0857ms total)
T1E10 002:616 JLINK_ReadMem (0x080001FC, 0x003C Bytes, ...) -- CPU_ReadMem(128 bytes @ 0x080001C0) -- Updating C cache (128 bytes @ 0x080001C0) -- Read from C cache (60 bytes @ 0x080001FC) - Data: 70 BD 88 B0 00 24 00 26 4F F4 A0 60 00 F0 8E F9 ...  returns 0x00 (0006ms, 0863ms total)
T1E10 002:643 JLINK_ReadMem (0x08000268, 0x003C Bytes, ...) -- CPU_ReadMem(128 bytes @ 0x08000240) -- Updating C cache (128 bytes @ 0x08000240) -- Read from C cache (60 bytes @ 0x08000268) - Data: 9D F8 16 10 9D F8 17 00 01 F0 5F F8 AD F8 08 00 ...  returns 0x00 (0005ms, 0868ms total)
T1E10 021:882 JLINK_ReadMem (0x08000238, 0x003C Bytes, ...) -- Read from C cache (60 bytes @ 0x08000238) - Data: 04 F0 01 00 00 B1 02 E0 76 1C 64 2E F1 D3 00 BF ...  returns 0x00 (0001ms, 0869ms total)
T1E10 031:331 JLINK_ReadMem (0x080002A4, 0x003C Bytes, ...) -- CPU_ReadMem(64 bytes @ 0x080002C0) -- Updating C cache (64 bytes @ 0x080002C0) -- Read from C cache (60 bytes @ 0x080002A4) - Data: 0C 30 BD F8 0A 20 BD F8 08 10 0E 48 01 F0 1C FA ...  returns 0x00 (0005ms, 0874ms total)
T2644 031:367 JLINK_SetBPEx(Addr = 0x08000212, Type = 0xFFFFFFF2)  returns 0x00000002 (0000ms, 0874ms total)
T2644 031:367 JLINK_SetBPEx(Addr = 0x0800021E, Type = 0xFFFFFFF2)  returns 0x00000003 (0000ms, 0874ms total)
T2644 031:367 JLINK_SetBPEx(Addr = 0x080002BC, Type = 0xFFFFFFF2)  returns 0x00000004 (0000ms, 0874ms total)
T2644 031:367 JLINK_SetBPEx(Addr = 0x08000220, Type = 0xFFFFFFF2)  returns 0x00000005 (0000ms, 0874ms total)
T2644 031:367 JLINK_SetBPEx(Addr = 0x08001422, Type = 0xFFFFFFF2)  returns 0x00000006 (0000ms, 0874ms total)
T2644 031:367 JLINK_SetBPEx(Addr = 0x0800144A, Type = 0xFFFFFFF2)  returns 0x00000007 (0000ms, 0874ms total)
T2644 031:367 JLINK_SetBPEx(Addr = 0x0800142E, Type = 0xFFFFFFF2) -- BP[0] @ 0x08000212 converted into FlashBP  returns 0x00000008 (0000ms, 0874ms total)
T2644 031:367 JLINK_SetBPEx(Addr = 0x08000238, Type = 0xFFFFFFF2) -- BP[1] @ 0x0800021E converted into FlashBP  returns 0x00000009 (0000ms, 0874ms total)
T2644 031:367 JLINK_SetBPEx(Addr = 0x08000268, Type = 0xFFFFFFF2) -- BP[2] @ 0x080002BC converted into FlashBP  returns 0x0000000A (0000ms, 0874ms total)
T2644 031:367 JLINK_SetBPEx(Addr = 0x08000298, Type = 0xFFFFFFF2) -- BP[3] @ 0x08000220 converted into FlashBP  returns 0x0000000B (0000ms, 0874ms total)
T2644 031:367 JLINK_SetBPEx(Addr = 0x080002A0, Type = 0xFFFFFFF2) -- BP[4] @ 0x08001422 converted into FlashBP  returns 0x0000000C (0000ms, 0874ms total)
T2644 031:367 JLINK_Go() -- Read from C cache (2 bytes @ 0x080001FE) -- Simulated -- Read from C cache (2 bytes @ 0x08000200) -- Simulated -- Read from C cache (2 bytes @ 0x08000202) -- Simulated -- Read from C cache (2 bytes @ 0x08000204) -- Read from C cache (2 bytes @ 0x08000206) -- Simulated -- Read from C cache (2 bytes @ 0x08000208) -- Read from C cache (2 bytes @ 0x0800020A) -- Simulated -- CPU_ReadMem(64 bytes @ 0x08000500) -- Updating C cache (64 bytes @ 0x08000500)
 -- Read from C cache (2 bytes @ 0x08000528) -- CPU_ReadMem(64 bytes @ 0x080005C0) -- Updating C cache (64 bytes @ 0x080005C0) -- Read from C cache (4 bytes @ 0x080005F0) -- Simulated -- Read from C cache (2 bytes @ 0x0800052A) -- Simulated -- Read from C cache (2 bytes @ 0x0800052C) -- Read from C cache (4 bytes @ 0x080005F4) -- Simulated -- Read from C cache (2 bytes @ 0x0800052E) -- Not simulated -- CPU_ReadMem(448 bytes @ 0x08000000) -- Updating C cache (448 bytes @ 0x08000000)
 -- CPU_ReadMem(512 bytes @ 0x08000300) -- Updating C cache (512 bytes @ 0x08000300) -- CPU_ReadMem(128 bytes @ 0x08000540) -- Updating C cache (128 bytes @ 0x08000540) -- CPU_ReadMem(512 bytes @ 0x08000600) -- Updating C cache (512 bytes @ 0x08000600) -- Read from C cache (2048 bytes @ 0x08000000) -- Updating flash cache (2048 bytes @ 0x08000000) -- Programming range 0x08000000 - 0x080007FF (001 Sector, 2 KB) -- CPU clock frequency: 72038 kHz -- CPU is running -- CPU_ReadMem(2048 bytes @ 0x08001000)
 -- Updating flash cache (2048 bytes @ 0x08001000) -- Programming range 0x08001000 - 0x080017FF (001 Sector, 2 KB) -- CPU_WriteMem(4 bytes @ 0xE0002008) -- CPU_WriteMem(4 bytes @ 0xE000200C) -- CPU_WriteMem(4 bytes @ 0xE0002010) -- CPU_WriteMem(4 bytes @ 0xE0002014) -- CPU_WriteMem(4 bytes @ 0xE0002018) -- CPU_WriteMem(4 bytes @ 0xE000201C) (0803ms, 1677ms total)
T2644 032:271 JLINK_IsHalted()  returns TRUE (0014ms, 1691ms total)
T2644 032:285 JLINK_Halt()  returns 0x00 (0000ms, 1677ms total)
T2644 032:285 JLINK_IsHalted()  returns TRUE (0000ms, 1677ms total)
T2644 032:285 JLINK_IsHalted()  returns TRUE (0000ms, 1677ms total)
T2644 032:285 JLINK_IsHalted()  returns TRUE (0000ms, 1677ms total)
T2644 032:285 JLINK_ReadReg(R15 (PC))  returns 0x08000212 (0000ms, 1677ms total)
T2644 032:285 JLINK_ReadReg(XPSR)  returns 0x41000000 (0000ms, 1677ms total)
T2644 032:285 JLINK_ClrBPEx(BPHandle = 0x00000002)  returns 0x00 (0000ms, 1677ms total)
T2644 032:285 JLINK_ClrBPEx(BPHandle = 0x00000003)  returns 0x00 (0000ms, 1677ms total)
T2644 032:285 JLINK_ClrBPEx(BPHandle = 0x00000004)  returns 0x00 (0000ms, 1677ms total)
T2644 032:285 JLINK_ClrBPEx(BPHandle = 0x00000005)  returns 0x00 (0000ms, 1677ms total)
T2644 032:285 JLINK_ClrBPEx(BPHandle = 0x00000006)  returns 0x00 (0000ms, 1677ms total)
T2644 032:285 JLINK_ClrBPEx(BPHandle = 0x00000007)  returns 0x00 (0001ms, 1678ms total)
T2644 032:286 JLINK_ClrBPEx(BPHandle = 0x00000008)  returns 0x00 (0000ms, 1678ms total)
T2644 032:286 JLINK_ClrBPEx(BPHandle = 0x00000009)  returns 0x00 (0000ms, 1678ms total)
T2644 032:286 JLINK_ClrBPEx(BPHandle = 0x0000000A)  returns 0x00 (0000ms, 1678ms total)
T2644 032:286 JLINK_ClrBPEx(BPHandle = 0x0000000B)  returns 0x00 (0000ms, 1678ms total)
T2644 032:286 JLINK_ClrBPEx(BPHandle = 0x0000000C)  returns 0x00 (0000ms, 1678ms total)
T2644 032:286 JLINK_ReadMemU32(0xE000ED30, 0x0001 Items, ...) -- CPU_ReadMem(4 bytes @ 0xE000ED30) - Data: 03 00 00 00  returns 0x01 (0002ms, 1680ms total)
T2644 032:288 JLINK_ReadMemU32(0xE0001028, 0x0001 Items, ...) -- CPU_ReadMem(4 bytes @ 0xE0001028) - Data: 00 00 00 00  returns 0x01 (0002ms, 1682ms total)
T2644 032:290 JLINK_ReadMemU32(0xE0001038, 0x0001 Items, ...) -- CPU_ReadMem(4 bytes @ 0xE0001038) - Data: 00 02 00 00  returns 0x01 (0001ms, 1683ms total)
T2644 032:291 JLINK_ReadMemU32(0xE0001048, 0x0001 Items, ...) -- CPU_ReadMem(4 bytes @ 0xE0001048) - Data: 00 00 00 00  returns 0x01 (0002ms, 1685ms total)
T2644 032:293 JLINK_ReadMemU32(0xE0001058, 0x0001 Items, ...) -- CPU_ReadMem(4 bytes @ 0xE0001058) - Data: 00 00 00 00  returns 0x01 (0003ms, 1688ms total)
T2644 032:296 JLINK_ReadReg(R0)  returns 0x00005208 (0000ms, 1688ms total)
T2644 032:296 JLINK_ReadReg(R1)  returns 0x2000002A (0000ms, 1688ms total)
T2644 032:296 JLINK_ReadReg(R2)  returns 0x20000028 (0000ms, 1688ms total)
T2644 032:296 JLINK_ReadReg(R3)  returns 0x20000360 (0000ms, 1688ms total)
T2644 032:296 JLINK_ReadReg(R4)  returns 0x00000000 (0000ms, 1688ms total)
T2644 032:296 JLINK_ReadReg(R5)  returns 0x200000FC (0000ms, 1688ms total)
T2644 032:296 JLINK_ReadReg(R6)  returns 0x00000000 (0000ms, 1688ms total)
T2644 032:296 JLINK_ReadReg(R7)  returns 0x00000000 (0000ms, 1688ms total)
T2644 032:296 JLINK_ReadReg(R8)  returns 0x00000000 (0000ms, 1688ms total)
T2644 032:296 JLINK_ReadReg(R9)  returns 0x20000160 (0000ms, 1688ms total)
T2644 032:296 JLINK_ReadReg(R10)  returns 0x08001AC8 (0000ms, 1688ms total)
T2644 032:297 JLINK_ReadReg(R11)  returns 0x00000000 (0000ms, 1689ms total)
T2644 032:297 JLINK_ReadReg(R12)  returns 0x2000013C (0000ms, 1689ms total)
T2644 032:297 JLINK_ReadReg(R13 (SP))  returns 0x20000740 (0000ms, 1689ms total)
T2644 032:297 JLINK_ReadReg(R14)  returns 0x08001119 (0000ms, 1689ms total)
T2644 032:297 JLINK_ReadReg(R15 (PC))  returns 0x08000212 (0000ms, 1689ms total)
T2644 032:297 JLINK_ReadReg(XPSR)  returns 0x41000000 (0000ms, 1689ms total)
T2644 032:297 JLINK_ReadReg(MSP)  returns 0x20000740 (0000ms, 1689ms total)
T2644 032:297 JLINK_ReadReg(PSP)  returns 0x20000800 (0000ms, 1689ms total)
T2644 032:297 JLINK_ReadReg(CFBP)  returns 0x00000000 (0000ms, 1689ms total)
T1E10 032:303 JLINK_ReadMemU32(0xE0001004, 0x0001 Items, ...) -- CPU_ReadMem(4 bytes @ 0xE0001004) - Data: A3 2D 22 01  returns 0x01 (0002ms, 1691ms total)
T1E10 032:309 JLINK_ReadMem (0x0800020C, 0x003C Bytes, ...) -- Read from flash cache (60 bytes @ 0x0800020C) -- Merging zombie BP[0]: 0xF44F @ 0x08000212 -- Merging zombie BP[1]: 0xE04D @ 0x0800021E -- Merging zombie BP[3]: 0x2101 @ 0x08000220 - Data: A8 20 00 F0 7D FF 4F F4 E1 30 00 F0 EE FF 01 F0 ...  returns 0x00 (0000ms, 1691ms total)
T2644 033:976 JLINK_Step() -- Merging zombie BP[0]: 0xF44F @ 0x08000212 -- Merging zombie BP[0]: 0xF44F @ 0x08000212 -- Read from flash cache (2 bytes @ 0x08000214) -- Simulated  returns 0x00 (0002ms, 1693ms total)
T2644 033:978 JLINK_ReadReg(R15 (PC))  returns 0x08000216 (0000ms, 1693ms total)
T2644 033:978 JLINK_ReadReg(XPSR)  returns 0x41000000 (0000ms, 1693ms total)
T2644 033:978 JLINK_SetBPEx(Addr = 0x08000212, Type = 0xFFFFFFF2)  returns 0x0000000D (0000ms, 1693ms total)
T2644 033:978 JLINK_SetBPEx(Addr = 0x0800021E, Type = 0xFFFFFFF2)  returns 0x0000000E (0000ms, 1693ms total)
T2644 033:978 JLINK_SetBPEx(Addr = 0x080002BC, Type = 0xFFFFFFF2)  returns 0x0000000F (0000ms, 1693ms total)
T2644 033:978 JLINK_SetBPEx(Addr = 0x08000220, Type = 0xFFFFFFF2)  returns 0x00000010 (0000ms, 1693ms total)
T2644 033:978 JLINK_SetBPEx(Addr = 0x08001422, Type = 0xFFFFFFF2)  returns 0x00000011 (0001ms, 1694ms total)
T2644 033:979 JLINK_SetBPEx(Addr = 0x0800144A, Type = 0xFFFFFFF2)  returns 0x00000012 (0000ms, 1694ms total)
T2644 033:979 JLINK_SetBPEx(Addr = 0x0800142E, Type = 0xFFFFFFF2)  returns 0x00000013 (0000ms, 1694ms total)
T2644 033:979 JLINK_SetBPEx(Addr = 0x08000238, Type = 0xFFFFFFF2)  returns 0x00000014 (0000ms, 1694ms total)
T2644 033:979 JLINK_SetBPEx(Addr = 0x08000268, Type = 0xFFFFFFF2)  returns 0x00000015 (0000ms, 1694ms total)
T2644 033:979 JLINK_SetBPEx(Addr = 0x08000298, Type = 0xFFFFFFF2)  returns 0x00000016 (0000ms, 1694ms total)
T2644 033:979 JLINK_SetBPEx(Addr = 0x080002A0, Type = 0xFFFFFFF2)  returns 0x00000017 (0000ms, 1694ms total)
T2644 033:979 JLINK_Go() -- CPU_WriteMem(4 bytes @ 0xE0001004) (0005ms, 1699ms total)
T2644 034:084 JLINK_IsHalted()  returns TRUE (0014ms, 1713ms total)
T2644 034:099 JLINK_Halt()  returns 0x00 (0000ms, 1699ms total)
T2644 034:099 JLINK_IsHalted()  returns TRUE (0000ms, 1699ms total)
T2644 034:099 JLINK_IsHalted()  returns TRUE (0000ms, 1699ms total)
T2644 034:099 JLINK_IsHalted()  returns TRUE (0000ms, 1699ms total)
T2644 034:099 JLINK_ReadReg(R15 (PC))  returns 0x0800021E (0000ms, 1699ms total)
T2644 034:099 JLINK_ReadReg(XPSR)  returns 0x21000000 (0000ms, 1699ms total)
T2644 034:099 JLINK_ClrBPEx(BPHandle = 0x0000000D)  returns 0x00 (0000ms, 1699ms total)
T2644 034:099 JLINK_ClrBPEx(BPHandle = 0x0000000E)  returns 0x00 (0000ms, 1699ms total)
T2644 034:099 JLINK_ClrBPEx(BPHandle = 0x0000000F)  returns 0x00 (0000ms, 1699ms total)
T2644 034:099 JLINK_ClrBPEx(BPHandle = 0x00000010)  returns 0x00 (0000ms, 1699ms total)
T2644 034:099 JLINK_ClrBPEx(BPHandle = 0x00000011)  returns 0x00 (0000ms, 1699ms total)
T2644 034:099 JLINK_ClrBPEx(BPHandle = 0x00000012)  returns 0x00 (0000ms, 1699ms total)
T2644 034:099 JLINK_ClrBPEx(BPHandle = 0x00000013)  returns 0x00 (0000ms, 1699ms total)
T2644 034:099 JLINK_ClrBPEx(BPHandle = 0x00000014)  returns 0x00 (0000ms, 1699ms total)
T2644 034:099 JLINK_ClrBPEx(BPHandle = 0x00000015)  returns 0x00 (0000ms, 1699ms total)
T2644 034:099 JLINK_ClrBPEx(BPHandle = 0x00000016)  returns 0x00 (0001ms, 1700ms total)
T2644 034:100 JLINK_ClrBPEx(BPHandle = 0x00000017)  returns 0x00 (0000ms, 1700ms total)
T2644 034:100 JLINK_ReadMemU32(0xE000ED30, 0x0001 Items, ...) -- CPU_ReadMem(4 bytes @ 0xE000ED30) - Data: 03 00 00 00  returns 0x01 (0001ms, 1701ms total)
T2644 034:101 JLINK_ReadMemU32(0xE0001028, 0x0001 Items, ...) -- CPU_ReadMem(4 bytes @ 0xE0001028) - Data: 00 00 00 00  returns 0x01 (0003ms, 1704ms total)
T2644 034:104 JLINK_ReadMemU32(0xE0001038, 0x0001 Items, ...) -- CPU_ReadMem(4 bytes @ 0xE0001038) - Data: 00 02 00 00  returns 0x01 (0002ms, 1706ms total)
T2644 034:106 JLINK_ReadMemU32(0xE0001048, 0x0001 Items, ...) -- CPU_ReadMem(4 bytes @ 0xE0001048) - Data: 00 00 00 00  returns 0x01 (0002ms, 1708ms total)
T2644 034:108 JLINK_ReadMemU32(0xE0001058, 0x0001 Items, ...) -- CPU_ReadMem(4 bytes @ 0xE0001058) - Data: 00 00 00 00  returns 0x01 (0002ms, 1710ms total)
T2644 034:110 JLINK_ReadReg(R0)  returns 0x00000001 (0000ms, 1710ms total)
T2644 034:110 JLINK_ReadReg(R1)  returns 0x42220000 (0000ms, 1710ms total)
T2644 034:110 JLINK_ReadReg(R2)  returns 0x40011000 (0000ms, 1710ms total)
T2644 034:110 JLINK_ReadReg(R3)  returns 0x10031800 (0000ms, 1710ms total)
T2644 034:110 JLINK_ReadReg(R4)  returns 0x00000000 (0000ms, 1710ms total)
T2644 034:110 JLINK_ReadReg(R5)  returns 0x200000FC (0000ms, 1710ms total)
T2644 034:110 JLINK_ReadReg(R6)  returns 0x00000000 (0000ms, 1710ms total)
T2644 034:110 JLINK_ReadReg(R7)  returns 0x00000000 (0000ms, 1710ms total)
T2644 034:110 JLINK_ReadReg(R8)  returns 0x00000000 (0000ms, 1710ms total)
T2644 034:110 JLINK_ReadReg(R9)  returns 0x20000160 (0000ms, 1710ms total)
T2644 034:110 JLINK_ReadReg(R10)  returns 0x08001AC8 (0000ms, 1710ms total)
T2644 034:110 JLINK_ReadReg(R11)  returns 0x00000000 (0000ms, 1710ms total)
T2644 034:110 JLINK_ReadReg(R12)  returns 0x00001800 (0000ms, 1710ms total)
T2644 034:110 JLINK_ReadReg(R13 (SP))  returns 0x20000740 (0001ms, 1711ms total)
T2644 034:111 JLINK_ReadReg(R14)  returns 0x080014B7 (0000ms, 1711ms total)
T2644 034:111 JLINK_ReadReg(R15 (PC))  returns 0x0800021E (0000ms, 1711ms total)
T2644 034:111 JLINK_ReadReg(XPSR)  returns 0x21000000 (0000ms, 1711ms total)
T2644 034:111 JLINK_ReadReg(MSP)  returns 0x20000740 (0000ms, 1711ms total)
T2644 034:111 JLINK_ReadReg(PSP)  returns 0x20000800 (0000ms, 1711ms total)
T2644 034:111 JLINK_ReadReg(CFBP)  returns 0x00000000 (0000ms, 1711ms total)
T1E10 034:120 JLINK_ReadMemU32(0xE0001004, 0x0001 Items, ...) -- CPU_ReadMem(4 bytes @ 0xE0001004) - Data: D7 33 22 01  returns 0x01 (0002ms, 1713ms total)
T1E10 034:129 JLINK_ReadMem (0x0800021A, 0x0002 Bytes, ...) -- Read from flash cache (2 bytes @ 0x0800021A) - Data: 01 F0  returns 0x00 (0000ms, 1713ms total)
T1E10 034:129 JLINK_ReadMem (0x0800021C, 0x003C Bytes, ...) -- Read from flash cache (60 bytes @ 0x0800021C) -- Merging zombie BP[1]: 0xE04D @ 0x0800021E -- Merging zombie BP[3]: 0x2101 @ 0x08000220 - Data: 39 F9 4D E0 01 21 00 20 01 F0 F5 F8 0B E0 0A 20 ...  returns 0x00 (0000ms, 1713ms total)
T2644 035:153 JLINK_Step() -- Merging zombie BP[1]: 0xE04D @ 0x0800021E -- Merging zombie BP[1]: 0xE04D @ 0x0800021E -- Simulated  returns 0x00 (0002ms, 1715ms total)
T2644 035:155 JLINK_ReadReg(R15 (PC))  returns 0x080002BC (0000ms, 1715ms total)
T2644 035:155 JLINK_ReadReg(XPSR)  returns 0x21000000 (0000ms, 1715ms total)
T2644 035:155 JLINK_ReadReg(R0)  returns 0x00000001 (0000ms, 1715ms total)
T2644 035:155 JLINK_ReadReg(R1)  returns 0x42220000 (0000ms, 1715ms total)
T2644 035:155 JLINK_ReadReg(R2)  returns 0x40011000 (0000ms, 1715ms total)
T2644 035:155 JLINK_ReadReg(R3)  returns 0x10031800 (0000ms, 1715ms total)
T2644 035:155 JLINK_ReadReg(R4)  returns 0x00000000 (0000ms, 1715ms total)
T2644 035:155 JLINK_ReadReg(R5)  returns 0x200000FC (0000ms, 1715ms total)
T2644 035:155 JLINK_ReadReg(R6)  returns 0x00000000 (0000ms, 1715ms total)
T2644 035:155 JLINK_ReadReg(R7)  returns 0x00000000 (0000ms, 1715ms total)
T2644 035:155 JLINK_ReadReg(R8)  returns 0x00000000 (0000ms, 1715ms total)
T2644 035:155 JLINK_ReadReg(R9)  returns 0x20000160 (0000ms, 1715ms total)
T2644 035:155 JLINK_ReadReg(R10)  returns 0x08001AC8 (0000ms, 1715ms total)
T2644 035:155 JLINK_ReadReg(R11)  returns 0x00000000 (0000ms, 1715ms total)
T2644 035:155 JLINK_ReadReg(R12)  returns 0x00001800 (0000ms, 1715ms total)
T2644 035:155 JLINK_ReadReg(R13 (SP))  returns 0x20000740 (0000ms, 1715ms total)
T2644 035:155 JLINK_ReadReg(R14)  returns 0x080014B7 (0000ms, 1715ms total)
T2644 035:156 JLINK_ReadReg(R15 (PC))  returns 0x080002BC (0000ms, 1716ms total)
T2644 035:156 JLINK_ReadReg(XPSR)  returns 0x21000000 (0000ms, 1716ms total)
T2644 035:156 JLINK_ReadReg(MSP)  returns 0x20000740 (0000ms, 1716ms total)
T2644 035:156 JLINK_ReadReg(PSP)  returns 0x20000800 (0000ms, 1716ms total)
T2644 035:156 JLINK_ReadReg(CFBP)  returns 0x00000000 (0000ms, 1716ms total)
T1E10 035:163 JLINK_ReadMemU32(0xE0001004, 0x0001 Items, ...) - Data: D7 33 22 01  returns 0x01 (0000ms, 1716ms total)
T1E10 035:167 JLINK_ReadMem (0x080002B4, 0x003C Bytes, ...) -- Read from flash cache (60 bytes @ 0x080002B4) -- Merging zombie BP[2]: 0xE7B0 @ 0x080002BC - Data: 4F F4 7A 70 00 F0 66 FF B0 E7 00 00 00 38 01 40 ...  returns 0x00 (0000ms, 1716ms total)
T2644 037:236 JLINK_Step() -- Merging zombie BP[2]: 0xE7B0 @ 0x080002BC -- Merging zombie BP[2]: 0xE7B0 @ 0x080002BC -- Simulated  returns 0x00 (0002ms, 1718ms total)
T2644 037:238 JLINK_ReadReg(R15 (PC))  returns 0x08000220 (0000ms, 1718ms total)
T2644 037:238 JLINK_ReadReg(XPSR)  returns 0x21000000 (0000ms, 1718ms total)
T2644 037:238 JLINK_ReadReg(R0)  returns 0x00000001 (0000ms, 1718ms total)
T2644 037:238 JLINK_ReadReg(R1)  returns 0x42220000 (0000ms, 1718ms total)
T2644 037:238 JLINK_ReadReg(R2)  returns 0x40011000 (0000ms, 1718ms total)
T2644 037:238 JLINK_ReadReg(R3)  returns 0x10031800 (0000ms, 1718ms total)
T2644 037:238 JLINK_ReadReg(R4)  returns 0x00000000 (0000ms, 1718ms total)
T2644 037:238 JLINK_ReadReg(R5)  returns 0x200000FC (0000ms, 1718ms total)
T2644 037:238 JLINK_ReadReg(R6)  returns 0x00000000 (0000ms, 1718ms total)
T2644 037:238 JLINK_ReadReg(R7)  returns 0x00000000 (0000ms, 1718ms total)
T2644 037:238 JLINK_ReadReg(R8)  returns 0x00000000 (0000ms, 1718ms total)
T2644 037:238 JLINK_ReadReg(R9)  returns 0x20000160 (0000ms, 1718ms total)
T2644 037:238 JLINK_ReadReg(R10)  returns 0x08001AC8 (0000ms, 1718ms total)
T2644 037:238 JLINK_ReadReg(R11)  returns 0x00000000 (0000ms, 1718ms total)
T2644 037:238 JLINK_ReadReg(R12)  returns 0x00001800 (0000ms, 1718ms total)
T2644 037:238 JLINK_ReadReg(R13 (SP))  returns 0x20000740 (0000ms, 1718ms total)
T2644 037:238 JLINK_ReadReg(R14)  returns 0x080014B7 (0000ms, 1718ms total)
T2644 037:238 JLINK_ReadReg(R15 (PC))  returns 0x08000220 (0000ms, 1718ms total)
T2644 037:238 JLINK_ReadReg(XPSR)  returns 0x21000000 (0000ms, 1718ms total)
T2644 037:238 JLINK_ReadReg(MSP)  returns 0x20000740 (0000ms, 1718ms total)
T2644 037:238 JLINK_ReadReg(PSP)  returns 0x20000800 (0000ms, 1718ms total)
T2644 037:238 JLINK_ReadReg(CFBP)  returns 0x00000000 (0000ms, 1718ms total)
T1E10 037:243 JLINK_ReadMemU32(0xE0001004, 0x0001 Items, ...) - Data: D7 33 22 01  returns 0x01 (0000ms, 1718ms total)
T1E10 037:245 JLINK_ReadMem (0x0800021E, 0x0002 Bytes, ...) -- Merging zombie BP[1]: 0xE04D @ 0x0800021E -- Merging zombie BP[1]: 0xE04D @ 0x0800021E - Data: 4D E0  returns 0x00 (0000ms, 1718ms total)
T1E10 037:245 JLINK_ReadMem (0x08000220, 0x003C Bytes, ...) -- Read from flash cache (60 bytes @ 0x08000220) -- Merging zombie BP[3]: 0x2101 @ 0x08000220 - Data: 01 21 00 20 01 F0 F5 F8 0B E0 0A 20 00 F0 AC FF ...  returns 0x00 (0000ms, 1718ms total)
T2644 039:839 JLINK_Step() -- Merging zombie BP[3]: 0x2101 @ 0x08000220 -- Merging zombie BP[3]: 0x2101 @ 0x08000220 -- Simulated  returns 0x00 (0002ms, 1720ms total)
T2644 039:842 JLINK_ReadReg(R15 (PC))  returns 0x08000222 (0000ms, 1720ms total)
T2644 039:842 JLINK_ReadReg(XPSR)  returns 0x21000000 (0000ms, 1720ms total)
T2644 039:842 JLINK_SetBPEx(Addr = 0x08000212, Type = 0xFFFFFFF2)  returns 0x00000018 (0000ms, 1720ms total)
T2644 039:842 JLINK_SetBPEx(Addr = 0x0800021E, Type = 0xFFFFFFF2)  returns 0x00000019 (0000ms, 1720ms total)
T2644 039:842 JLINK_SetBPEx(Addr = 0x080002BC, Type = 0xFFFFFFF2)  returns 0x0000001A (0000ms, 1720ms total)
T2644 039:842 JLINK_SetBPEx(Addr = 0x08000220, Type = 0xFFFFFFF2)  returns 0x0000001B (0000ms, 1720ms total)
T2644 039:842 JLINK_SetBPEx(Addr = 0x08001422, Type = 0xFFFFFFF2)  returns 0x0000001C (0000ms, 1720ms total)
T2644 039:842 JLINK_SetBPEx(Addr = 0x0800144A, Type = 0xFFFFFFF2)  returns 0x0000001D (0000ms, 1720ms total)
T2644 039:842 JLINK_SetBPEx(Addr = 0x0800142E, Type = 0xFFFFFFF2)  returns 0x0000001E (0000ms, 1720ms total)
T2644 039:842 JLINK_SetBPEx(Addr = 0x08000238, Type = 0xFFFFFFF2)  returns 0x0000001F (0000ms, 1720ms total)
T2644 039:842 JLINK_SetBPEx(Addr = 0x08000268, Type = 0xFFFFFFF2)  returns 0x00000020 (0000ms, 1720ms total)
T2644 039:842 JLINK_SetBPEx(Addr = 0x08000298, Type = 0xFFFFFFF2)  returns 0x00000021 (0000ms, 1720ms total)
T2644 039:842 JLINK_SetBPEx(Addr = 0x080002A0, Type = 0xFFFFFFF2)  returns 0x00000022 (0000ms, 1720ms total)
T2644 039:842 JLINK_Go() -- CPU_WriteMem(4 bytes @ 0xE0001004) (0005ms, 1725ms total)
T2644 039:948 JLINK_IsHalted()  returns TRUE (0014ms, 1739ms total)
T2644 039:962 JLINK_Halt()  returns 0x00 (0000ms, 1725ms total)
T2644 039:962 JLINK_IsHalted()  returns TRUE (0000ms, 1725ms total)
T2644 039:962 JLINK_IsHalted()  returns TRUE (0000ms, 1725ms total)
T2644 039:962 JLINK_IsHalted()  returns TRUE (0000ms, 1725ms total)
T2644 039:962 JLINK_ReadReg(R15 (PC))  returns 0x08001422 (0000ms, 1725ms total)
T2644 039:962 JLINK_ReadReg(XPSR)  returns 0x61000000 (0000ms, 1725ms total)
T2644 039:962 JLINK_ClrBPEx(BPHandle = 0x00000018)  returns 0x00 (0000ms, 1725ms total)
T2644 039:962 JLINK_ClrBPEx(BPHandle = 0x00000019)  returns 0x00 (0000ms, 1725ms total)
T2644 039:962 JLINK_ClrBPEx(BPHandle = 0x0000001A)  returns 0x00 (0000ms, 1725ms total)
T2644 039:962 JLINK_ClrBPEx(BPHandle = 0x0000001B)  returns 0x00 (0000ms, 1725ms total)
T2644 039:962 JLINK_ClrBPEx(BPHandle = 0x0000001C)  returns 0x00 (0000ms, 1725ms total)
T2644 039:962 JLINK_ClrBPEx(BPHandle = 0x0000001D)  returns 0x00 (0000ms, 1725ms total)
T2644 039:962 JLINK_ClrBPEx(BPHandle = 0x0000001E)  returns 0x00 (0000ms, 1725ms total)
T2644 039:962 JLINK_ClrBPEx(BPHandle = 0x0000001F)  returns 0x00 (0000ms, 1725ms total)
T2644 039:962 JLINK_ClrBPEx(BPHandle = 0x00000020)  returns 0x00 (0000ms, 1725ms total)
T2644 039:962 JLINK_ClrBPEx(BPHandle = 0x00000021)  returns 0x00 (0000ms, 1725ms total)
T2644 039:962 JLINK_ClrBPEx(BPHandle = 0x00000022)  returns 0x00 (0000ms, 1725ms total)
T2644 039:962 JLINK_ReadMemU32(0xE000ED30, 0x0001 Items, ...) -- CPU_ReadMem(4 bytes @ 0xE000ED30) - Data: 03 00 00 00  returns 0x01 (0002ms, 1727ms total)
T2644 039:964 JLINK_ReadMemU32(0xE0001028, 0x0001 Items, ...) -- CPU_ReadMem(4 bytes @ 0xE0001028) - Data: 00 00 00 00  returns 0x01 (0002ms, 1729ms total)
T2644 039:966 JLINK_ReadMemU32(0xE0001038, 0x0001 Items, ...) -- CPU_ReadMem(4 bytes @ 0xE0001038) - Data: 00 02 00 00  returns 0x01 (0002ms, 1731ms total)
T2644 039:968 JLINK_ReadMemU32(0xE0001048, 0x0001 Items, ...) -- CPU_ReadMem(4 bytes @ 0xE0001048) - Data: 00 00 00 00  returns 0x01 (0002ms, 1733ms total)
T2644 039:970 JLINK_ReadMemU32(0xE0001058, 0x0001 Items, ...) -- CPU_ReadMem(4 bytes @ 0xE0001058) - Data: 00 00 00 00  returns 0x01 (0001ms, 1734ms total)
T2644 039:971 JLINK_ReadReg(R0)  returns 0x00000008 (0000ms, 1734ms total)
T2644 039:971 JLINK_ReadReg(R1)  returns 0x00000002 (0000ms, 1734ms total)
T2644 039:971 JLINK_ReadReg(R2)  returns 0x00000000 (0000ms, 1734ms total)
T2644 039:971 JLINK_ReadReg(R3)  returns 0xE000E000 (0000ms, 1734ms total)
T2644 039:971 JLINK_ReadReg(R4)  returns 0x00000001 (0000ms, 1734ms total)
T2644 039:971 JLINK_ReadReg(R5)  returns 0x00000000 (0000ms, 1734ms total)
T2644 039:971 JLINK_ReadReg(R6)  returns 0x00000000 (0000ms, 1734ms total)
T2644 039:972 JLINK_ReadReg(R7)  returns 0x00000000 (0000ms, 1734ms total)
T2644 039:972 JLINK_ReadReg(R8)  returns 0x00000000 (0000ms, 1734ms total)
T2644 039:972 JLINK_ReadReg(R9)  returns 0x20000160 (0000ms, 1734ms total)
T2644 039:972 JLINK_ReadReg(R10)  returns 0x08001AC8 (0000ms, 1734ms total)
T2644 039:972 JLINK_ReadReg(R11)  returns 0x00000000 (0000ms, 1734ms total)
T2644 039:972 JLINK_ReadReg(R12)  returns 0x00001800 (0000ms, 1734ms total)
T2644 039:972 JLINK_ReadReg(R13 (SP))  returns 0x20000730 (0000ms, 1734ms total)
T2644 039:972 JLINK_ReadReg(R14)  returns 0x08001671 (0000ms, 1734ms total)
T2644 039:972 JLINK_ReadReg(R15 (PC))  returns 0x08001422 (0000ms, 1734ms total)
T2644 039:972 JLINK_ReadReg(XPSR)  returns 0x61000000 (0000ms, 1734ms total)
T2644 039:972 JLINK_ReadReg(MSP)  returns 0x20000730 (0000ms, 1734ms total)
T2644 039:972 JLINK_ReadReg(PSP)  returns 0x20000800 (0000ms, 1734ms total)
T2644 039:972 JLINK_ReadReg(CFBP)  returns 0x00000000 (0000ms, 1734ms total)
T1E10 039:972 JLINK_ReadMem (0x2000073C, 0x0004 Bytes, ...) -- CPU_ReadMem(64 bytes @ 0x20000700) -- Updating C cache (64 bytes @ 0x20000700) -- Read from C cache (4 bytes @ 0x2000073C) - Data: 29 02 00 08  returns 0x00 (0003ms, 1737ms total)
T1E10 039:975 JLINK_ReadMem (0x20000730, 0x0004 Bytes, ...) -- Read from C cache (4 bytes @ 0x20000730) - Data: 00 00 00 00  returns 0x00 (0000ms, 1737ms total)
T1E10 039:975 JLINK_ReadMem (0x20000734, 0x0004 Bytes, ...) -- Read from C cache (4 bytes @ 0x20000734) - Data: FC 00 00 20  returns 0x00 (0001ms, 1738ms total)
T1E10 039:976 JLINK_ReadMem (0x20000738, 0x0004 Bytes, ...) -- Read from C cache (4 bytes @ 0x20000738) - Data: 00 00 00 00  returns 0x00 (0000ms, 1738ms total)
T1E10 039:983 JLINK_ReadMemU32(0xE0001004, 0x0001 Items, ...) -- CPU_ReadMem(4 bytes @ 0xE0001004) - Data: FE 60 22 01  returns 0x01 (0002ms, 1740ms total)
T1E10 039:988 JLINK_ReadMem (0x0800141C, 0x003C Bytes, ...) -- Read from flash cache (60 bytes @ 0x0800141C) -- Merging zombie BP[4]: 0xF000 @ 0x08001422 - Data: 52 20 00 F0 FF F8 00 F0 90 F8 18 B1 00 F0 6E F8 ...  returns 0x00 (0000ms, 1740ms total)
T2644 042:825 JLINK_Step() -- Merging zombie BP[4]: 0xF000 @ 0x08001422 -- Merging zombie BP[4]: 0xF000 @ 0x08001422 -- Read from flash cache (2 bytes @ 0x08001424) -- Simulated  returns 0x00 (0002ms, 1742ms total)
T2644 042:827 JLINK_ReadReg(R15 (PC))  returns 0x08001546 (0000ms, 1742ms total)
T2644 042:827 JLINK_ReadReg(XPSR)  returns 0x61000000 (0000ms, 1742ms total)
T2644 042:827 JLINK_SetBPEx(Addr = 0x08000212, Type = 0xFFFFFFF2)  returns 0x00000023 (0000ms, 1742ms total)
T2644 042:827 JLINK_SetBPEx(Addr = 0x0800021E, Type = 0xFFFFFFF2)  returns 0x00000024 (0000ms, 1742ms total)
T2644 042:827 JLINK_SetBPEx(Addr = 0x080002BC, Type = 0xFFFFFFF2)  returns 0x00000025 (0000ms, 1742ms total)
T2644 042:827 JLINK_SetBPEx(Addr = 0x08000220, Type = 0xFFFFFFF2)  returns 0x00000026 (0000ms, 1742ms total)
T2644 042:827 JLINK_SetBPEx(Addr = 0x08001422, Type = 0xFFFFFFF2)  returns 0x00000027 (0000ms, 1742ms total)
T2644 042:827 JLINK_SetBPEx(Addr = 0x0800144A, Type = 0xFFFFFFF2)  returns 0x00000028 (0000ms, 1742ms total)
T2644 042:827 JLINK_SetBPEx(Addr = 0x0800142E, Type = 0xFFFFFFF2)  returns 0x00000029 (0000ms, 1742ms total)
T2644 042:827 JLINK_SetBPEx(Addr = 0x08000238, Type = 0xFFFFFFF2)  returns 0x0000002A (0000ms, 1742ms total)
T2644 042:827 JLINK_SetBPEx(Addr = 0x08000268, Type = 0xFFFFFFF2)  returns 0x0000002B (0000ms, 1742ms total)
T2644 042:827 JLINK_SetBPEx(Addr = 0x08000298, Type = 0xFFFFFFF2)  returns 0x0000002C (0000ms, 1742ms total)
T2644 042:827 JLINK_SetBPEx(Addr = 0x080002A0, Type = 0xFFFFFFF2)  returns 0x0000002D (0000ms, 1742ms total)
T2644 042:827 JLINK_Go() -- CPU_WriteMem(4 bytes @ 0xE0001004) (0005ms, 1747ms total)
T2644 042:933 JLINK_IsHalted()  returns TRUE (0013ms, 1760ms total)
T2644 042:946 JLINK_Halt()  returns 0x00 (0000ms, 1747ms total)
T2644 042:946 JLINK_IsHalted()  returns TRUE (0000ms, 1747ms total)
T2644 042:946 JLINK_IsHalted()  returns TRUE (0000ms, 1747ms total)
T2644 042:946 JLINK_IsHalted()  returns TRUE (0000ms, 1747ms total)
T2644 042:946 JLINK_ReadReg(R15 (PC))  returns 0x0800142E (0000ms, 1747ms total)
T2644 042:946 JLINK_ReadReg(XPSR)  returns 0x21000000 (0000ms, 1747ms total)
T2644 042:946 JLINK_ClrBPEx(BPHandle = 0x00000023)  returns 0x00 (0000ms, 1747ms total)
T2644 042:946 JLINK_ClrBPEx(BPHandle = 0x00000024)  returns 0x00 (0000ms, 1747ms total)
T2644 042:946 JLINK_ClrBPEx(BPHandle = 0x00000025)  returns 0x00 (0000ms, 1747ms total)
T2644 042:946 JLINK_ClrBPEx(BPHandle = 0x00000026)  returns 0x00 (0000ms, 1747ms total)
T2644 042:946 JLINK_ClrBPEx(BPHandle = 0x00000027)  returns 0x00 (0000ms, 1747ms total)
T2644 042:946 JLINK_ClrBPEx(BPHandle = 0x00000028)  returns 0x00 (0000ms, 1747ms total)
T2644 042:946 JLINK_ClrBPEx(BPHandle = 0x00000029)  returns 0x00 (0000ms, 1747ms total)
T2644 042:947 JLINK_ClrBPEx(BPHandle = 0x0000002A)  returns 0x00 (0000ms, 1747ms total)
T2644 042:947 JLINK_ClrBPEx(BPHandle = 0x0000002B)  returns 0x00 (0000ms, 1747ms total)
T2644 042:947 JLINK_ClrBPEx(BPHandle = 0x0000002C)  returns 0x00 (0000ms, 1747ms total)
T2644 042:947 JLINK_ClrBPEx(BPHandle = 0x0000002D)  returns 0x00 (0000ms, 1747ms total)
T2644 042:947 JLINK_ReadMemU32(0xE000ED30, 0x0001 Items, ...) -- CPU_ReadMem(4 bytes @ 0xE000ED30) - Data: 03 00 00 00  returns 0x01 (0001ms, 1748ms total)
T2644 042:948 JLINK_ReadMemU32(0xE0001028, 0x0001 Items, ...) -- CPU_ReadMem(4 bytes @ 0xE0001028) - Data: 00 00 00 00  returns 0x01 (0002ms, 1750ms total)
T2644 042:950 JLINK_ReadMemU32(0xE0001038, 0x0001 Items, ...) -- CPU_ReadMem(4 bytes @ 0xE0001038) - Data: 00 02 00 00  returns 0x01 (0002ms, 1752ms total)
T2644 042:952 JLINK_ReadMemU32(0xE0001048, 0x0001 Items, ...) -- CPU_ReadMem(4 bytes @ 0xE0001048) - Data: 00 00 00 00  returns 0x01 (0002ms, 1754ms total)
T2644 042:954 JLINK_ReadMemU32(0xE0001058, 0x0001 Items, ...) -- CPU_ReadMem(4 bytes @ 0xE0001058) - Data: 00 00 00 00  returns 0x01 (0002ms, 1756ms total)
T2644 042:956 JLINK_ReadReg(R0)  returns 0x00000001 (0000ms, 1756ms total)
T2644 042:956 JLINK_ReadReg(R1)  returns 0x00000004 (0000ms, 1756ms total)
T2644 042:956 JLINK_ReadReg(R2)  returns 0x00000000 (0000ms, 1756ms total)
T2644 042:956 JLINK_ReadReg(R3)  returns 0xE000E000 (0000ms, 1756ms total)
T2644 042:956 JLINK_ReadReg(R4)  returns 0x00000001 (0000ms, 1756ms total)
T2644 042:956 JLINK_ReadReg(R5)  returns 0x00000000 (0000ms, 1756ms total)
T2644 042:956 JLINK_ReadReg(R6)  returns 0x00000000 (0000ms, 1756ms total)
T2644 042:956 JLINK_ReadReg(R7)  returns 0x00000000 (0000ms, 1756ms total)
T2644 042:956 JLINK_ReadReg(R8)  returns 0x00000000 (0000ms, 1756ms total)
T2644 042:956 JLINK_ReadReg(R9)  returns 0x20000160 (0000ms, 1756ms total)
T2644 042:956 JLINK_ReadReg(R10)  returns 0x08001AC8 (0000ms, 1756ms total)
T2644 042:956 JLINK_ReadReg(R11)  returns 0x00000000 (0000ms, 1756ms total)
T2644 042:956 JLINK_ReadReg(R12)  returns 0x00001800 (0000ms, 1756ms total)
T2644 042:956 JLINK_ReadReg(R13 (SP))  returns 0x20000730 (0000ms, 1756ms total)
T2644 042:956 JLINK_ReadReg(R14)  returns 0x08001545 (0000ms, 1756ms total)
T2644 042:956 JLINK_ReadReg(R15 (PC))  returns 0x0800142E (0000ms, 1756ms total)
T2644 042:956 JLINK_ReadReg(XPSR)  returns 0x21000000 (0000ms, 1756ms total)
T2644 042:956 JLINK_ReadReg(MSP)  returns 0x20000730 (0000ms, 1756ms total)
T2644 042:956 JLINK_ReadReg(PSP)  returns 0x20000800 (0000ms, 1756ms total)
T2644 042:956 JLINK_ReadReg(CFBP)  returns 0x00000000 (0000ms, 1756ms total)
T1E10 042:956 JLINK_ReadMem (0x2000073C, 0x0004 Bytes, ...) -- CPU_ReadMem(64 bytes @ 0x20000700) -- Updating C cache (64 bytes @ 0x20000700) -- Read from C cache (4 bytes @ 0x2000073C) - Data: 29 02 00 08  returns 0x00 (0004ms, 1760ms total)
T1E10 042:960 JLINK_ReadMem (0x20000730, 0x0004 Bytes, ...) -- Read from C cache (4 bytes @ 0x20000730) - Data: 00 00 00 00  returns 0x00 (0000ms, 1760ms total)
T1E10 042:960 JLINK_ReadMem (0x20000734, 0x0004 Bytes, ...) -- Read from C cache (4 bytes @ 0x20000734) - Data: FC 00 00 20  returns 0x00 (0000ms, 1760ms total)
T1E10 042:960 JLINK_ReadMem (0x20000738, 0x0004 Bytes, ...) -- Read from C cache (4 bytes @ 0x20000738) - Data: 00 00 00 00  returns 0x00 (0000ms, 1760ms total)
T1E10 042:960 JLINK_ReadMemU32(0xE0001004, 0x0001 Items, ...) -- CPU_ReadMem(4 bytes @ 0xE0001004) - Data: 9B 85 22 01  returns 0x01 (0002ms, 1762ms total)
T1E10 042:965 JLINK_ReadMem (0x0800142C, 0x003C Bytes, ...) -- Read from flash cache (60 bytes @ 0x0800142C) - Data: 01 20 70 BD 28 46 00 F0 F5 F8 00 F0 86 F8 20 46 ...  returns 0x00 (0000ms, 1762ms total)
T1E10 054:628 JLINK_ReadMem (0x00000000, 0x0132 Bytes, ...) -- CPU_ReadMem(4 bytes @ 0x00000004) -- Read from flash cache (306 bytes @ 0x08000000) - Data: 60 07 00 20 E9 04 00 08 ED 02 00 08 EF 02 00 08 ...  returns 0x00 (0003ms, 1765ms total)
T2644 057:793 JLINK_Step() -- Read from flash cache (2 bytes @ 0x0800142E) -- Read from C cache (16 bytes @ 0x20000730) -- Simulated  returns 0x00 (0003ms, 1768ms total)
T2644 057:796 JLINK_ReadReg(R15 (PC))  returns 0x08000228 (0000ms, 1768ms total)
T2644 057:796 JLINK_ReadReg(XPSR)  returns 0x21000000 (0000ms, 1768ms total)
T2644 057:796 JLINK_SetBPEx(Addr = 0x08000212, Type = 0xFFFFFFF2)  returns 0x0000002E (0000ms, 1768ms total)
T2644 057:796 JLINK_SetBPEx(Addr = 0x0800021E, Type = 0xFFFFFFF2)  returns 0x0000002F (0000ms, 1768ms total)
T2644 057:796 JLINK_SetBPEx(Addr = 0x080002BC, Type = 0xFFFFFFF2)  returns 0x00000030 (0000ms, 1768ms total)
T2644 057:796 JLINK_SetBPEx(Addr = 0x08000220, Type = 0xFFFFFFF2)  returns 0x00000031 (0000ms, 1768ms total)
T2644 057:796 JLINK_SetBPEx(Addr = 0x08001422, Type = 0xFFFFFFF2)  returns 0x00000032 (0000ms, 1768ms total)
T2644 057:796 JLINK_SetBPEx(Addr = 0x0800144A, Type = 0xFFFFFFF2)  returns 0x00000033 (0000ms, 1768ms total)
T2644 057:796 JLINK_SetBPEx(Addr = 0x0800142E, Type = 0xFFFFFFF2)  returns 0x00000034 (0000ms, 1768ms total)
T2644 057:796 JLINK_SetBPEx(Addr = 0x08000238, Type = 0xFFFFFFF2)  returns 0x00000035 (0000ms, 1768ms total)
T2644 057:796 JLINK_SetBPEx(Addr = 0x08000268, Type = 0xFFFFFFF2)  returns 0x00000036 (0000ms, 1768ms total)
T2644 057:796 JLINK_SetBPEx(Addr = 0x08000298, Type = 0xFFFFFFF2)  returns 0x00000037 (0000ms, 1768ms total)
T2644 057:796 JLINK_SetBPEx(Addr = 0x080002A0, Type = 0xFFFFFFF2)  returns 0x00000038 (0000ms, 1768ms total)
T2644 057:796 JLINK_Go() -- CPU_WriteMem(4 bytes @ 0xE0001004) (0006ms, 1774ms total)
T2644 057:902 JLINK_IsHalted()  returns TRUE (0014ms, 1788ms total)
T2644 057:916 JLINK_Halt()  returns 0x00 (0000ms, 1774ms total)
T2644 057:916 JLINK_IsHalted()  returns TRUE (0000ms, 1774ms total)
T2644 057:916 JLINK_IsHalted()  returns TRUE (0000ms, 1774ms total)
T2644 057:916 JLINK_IsHalted()  returns TRUE (0000ms, 1774ms total)
T2644 057:916 JLINK_ReadReg(R15 (PC))  returns 0x08000238 (0000ms, 1774ms total)
T2644 057:916 JLINK_ReadReg(XPSR)  returns 0x61000000 (0000ms, 1774ms total)
T2644 057:916 JLINK_ClrBPEx(BPHandle = 0x0000002E)  returns 0x00 (0000ms, 1774ms total)
